Sample in Buffer,Sample in Window,TRIGGER,SPI_CLK_OBUF,State_copy[8:0],SPI_RESET_OBUF,SPI_MOSI_OBUF,SPI_MISO_IBUF,data_input[7:0],data_output[7:0],rw_flag[1:0],SPI_CS_OBUF,TrigerEvent,SPI_gen_CLK
0,0,1,0,0,1,0,1,00,00,1,1,1,1
1,1,0,0,0,1,0,1,00,00,1,1,1,0
2,2,0,0,1,1,0,1,00,00,1,1,1,1
3,3,0,0,1,1,0,1,00,00,1,1,1,0
4,4,0,0,2,1,0,1,00,00,1,1,1,1
5,5,0,0,2,1,0,1,00,00,1,1,1,0
6,6,0,0,3,1,0,1,00,00,1,0,1,1
7,7,0,0,3,1,0,1,00,00,1,0,1,0
8,8,0,0,4,1,0,1,00,00,1,0,1,1
9,9,0,0,4,1,0,1,00,00,1,0,1,0
10,10,0,1,5,1,0,1,00,00,1,0,1,1
11,11,0,1,5,1,0,1,00,00,1,0,1,0
12,12,0,1,6,1,0,1,00,00,1,0,1,1
13,13,0,1,6,1,0,1,00,00,1,0,1,0
14,14,0,0,7,1,0,1,00,00,1,0,1,1
15,15,0,0,7,1,0,1,00,00,1,0,1,0
16,16,0,0,8,1,0,1,00,00,1,0,1,1
17,17,0,0,8,1,0,1,00,00,1,0,1,0
18,18,0,1,9,1,0,1,00,00,1,0,1,1
19,19,0,1,9,1,0,1,00,00,1,0,1,0
20,20,0,1,10,1,0,1,00,00,1,0,1,1
21,21,0,1,10,1,0,1,00,00,1,0,1,0
22,22,0,0,11,1,0,1,00,00,1,0,1,1
23,23,0,0,11,1,0,1,00,00,1,0,1,0
24,24,0,0,12,1,0,1,00,00,1,0,1,1
25,25,0,0,12,1,0,1,00,00,1,0,1,0
26,26,0,1,13,1,0,1,00,00,1,0,1,1
27,27,0,1,13,1,0,1,00,00,1,0,1,0
28,28,0,1,14,1,0,1,00,00,1,0,1,1
29,29,0,1,14,1,0,1,00,00,1,0,1,0
30,30,0,0,15,1,1,1,00,00,1,0,1,1
31,31,0,0,15,1,1,1,00,00,1,0,1,0
32,32,0,0,16,1,1,1,00,00,1,0,1,1
33,33,0,0,16,1,1,1,00,00,1,0,1,0
34,34,0,1,17,1,1,1,00,00,1,0,1,1
35,35,0,1,17,1,1,1,00,00,1,0,1,0
36,36,0,1,18,1,1,1,00,00,1,0,1,1
37,37,0,1,18,1,1,1,00,00,1,0,1,0
38,38,0,0,19,1,0,1,00,00,1,0,1,1
39,39,0,0,19,1,0,1,00,00,1,0,1,0
40,40,0,0,20,1,0,1,00,00,1,0,1,1
41,41,0,0,20,1,0,1,00,00,1,0,1,0
42,42,0,1,21,1,0,1,00,00,1,0,1,1
43,43,0,1,21,1,0,1,00,00,1,0,1,0
44,44,0,1,22,1,0,1,00,00,1,0,1,1
45,45,0,1,22,1,0,1,00,00,1,0,1,0
46,46,0,0,23,1,0,1,00,00,1,0,1,1
47,47,0,0,23,1,0,1,00,00,1,0,1,0
48,48,0,0,24,1,0,1,00,00,1,0,1,1
49,49,0,0,24,1,0,1,00,00,1,0,1,0
50,50,0,1,25,1,0,1,00,00,1,0,1,1
51,51,0,1,25,1,0,1,00,00,1,0,1,0
52,52,0,1,26,1,0,1,00,00,1,0,1,1
53,53,0,1,26,1,0,1,00,00,1,0,1,0
54,54,0,0,27,1,1,1,00,00,1,0,1,1
55,55,0,0,27,1,1,1,00,00,1,0,1,0
56,56,0,0,28,1,1,1,00,00,1,0,1,1
57,57,0,0,28,1,1,1,00,00,1,0,1,0
58,58,0,1,29,1,1,1,00,00,1,0,1,1
59,59,0,1,29,1,1,1,00,00,1,0,1,0
60,60,0,1,30,1,1,1,00,00,1,0,1,1
61,61,0,1,30,1,1,1,00,00,1,0,1,0
62,62,0,0,31,1,0,1,00,00,1,0,1,1
63,63,0,0,31,1,0,1,00,00,1,0,1,0
64,64,0,0,32,1,0,1,00,00,1,0,1,1
65,65,0,0,32,1,0,1,00,00,1,0,1,0
66,66,0,1,33,1,0,1,00,00,1,0,1,1
67,67,0,1,33,1,0,1,00,00,1,0,1,0
68,68,0,1,34,1,0,1,00,00,1,0,1,1
69,69,0,1,34,1,0,1,00,00,1,0,1,0
70,70,0,0,35,1,0,1,00,00,1,0,1,1
71,71,0,0,35,1,0,1,00,00,1,0,1,0
72,72,0,0,36,1,0,1,00,00,1,0,1,1
73,73,0,0,36,1,0,1,00,00,1,0,1,0
74,74,0,1,37,1,0,1,00,00,1,0,1,1
75,75,0,1,37,1,0,1,00,00,1,0,1,0
76,76,0,1,38,1,0,1,00,00,1,0,1,1
77,77,0,1,38,1,0,1,00,00,1,0,1,0
78,78,0,0,39,1,0,1,00,00,1,0,1,1
79,79,0,0,39,1,0,1,00,00,1,0,1,0
80,80,0,0,40,1,0,1,00,00,1,0,1,1
81,81,0,0,40,1,0,1,00,00,1,0,1,0
82,82,0,1,41,1,0,1,00,00,1,0,1,1
83,83,0,1,41,1,0,1,00,00,1,0,1,0
84,84,0,1,42,1,0,1,00,00,1,0,1,1
85,85,0,1,42,1,0,1,00,00,1,0,1,0
86,86,0,0,43,1,0,1,00,00,1,0,1,1
87,87,0,0,43,1,0,1,00,00,1,0,1,0
88,88,0,0,44,1,0,1,00,00,1,0,1,1
89,89,0,0,44,1,0,1,00,00,1,0,1,0
90,90,0,1,45,1,0,1,00,00,1,0,1,1
91,91,0,1,45,1,0,1,00,00,1,0,1,0
92,92,0,1,46,1,0,1,00,00,1,0,1,1
93,93,0,1,46,1,0,1,00,00,1,0,1,0
94,94,0,0,47,1,0,1,00,00,1,0,1,1
95,95,0,0,47,1,0,1,00,00,1,0,1,0
96,96,0,0,48,1,0,1,00,00,1,0,1,1
97,97,0,0,48,1,0,1,00,00,1,0,1,0
98,98,0,1,49,1,0,1,00,00,1,0,1,1
99,99,0,1,49,1,0,1,00,00,1,0,1,0
100,100,0,1,50,1,0,1,00,00,1,0,1,1
101,101,0,1,50,1,0,1,00,00,1,0,1,0
102,102,0,0,51,1,0,1,00,00,1,0,1,1
103,103,0,0,51,1,0,1,00,00,1,0,1,0
104,104,0,0,52,1,0,1,00,00,1,0,1,1
105,105,0,0,52,1,0,1,00,00,1,0,1,0
106,106,0,1,53,1,0,1,00,00,1,0,1,1
107,107,0,1,53,1,0,1,00,00,1,0,1,0
108,108,0,1,54,1,0,1,00,00,1,0,1,1
109,109,0,1,54,1,0,1,00,00,1,0,1,0
110,110,0,0,55,1,0,1,00,00,1,0,1,1
111,111,0,0,55,1,0,1,00,00,1,0,1,0
112,112,0,0,56,1,0,1,00,00,1,0,1,1
113,113,0,0,56,1,0,1,00,00,1,0,1,0
114,114,0,1,57,1,0,1,00,00,1,0,1,1
115,115,0,1,57,1,0,1,00,00,1,0,1,0
116,116,0,1,58,1,0,1,00,00,1,0,1,1
117,117,0,1,58,1,0,1,00,00,1,0,1,0
118,118,0,0,59,1,0,1,00,00,1,0,1,1
119,119,0,0,59,1,0,1,00,00,1,0,1,0
120,120,0,0,60,1,0,1,00,00,1,0,1,1
121,121,0,0,60,1,0,1,00,00,1,0,1,0
122,122,0,1,61,1,0,1,00,00,1,0,1,1
123,123,0,1,61,1,0,1,00,00,1,0,1,0
124,124,0,1,62,1,0,1,00,00,1,0,1,1
125,125,0,1,62,1,0,1,00,00,1,0,1,0
126,126,0,0,63,1,0,1,00,00,1,0,1,1
127,127,0,0,63,1,0,1,00,00,1,0,1,0
128,128,0,0,64,1,0,1,00,00,1,0,1,1
129,129,0,0,64,1,0,1,00,00,1,0,1,0
130,130,0,1,65,1,0,1,00,00,1,0,1,1
131,131,0,1,65,1,0,1,00,00,1,0,1,0
132,132,0,1,66,1,0,1,00,00,1,0,1,1
133,133,0,1,66,1,0,1,00,00,1,0,1,0
134,134,0,0,67,1,0,1,00,00,1,0,1,1
135,135,0,0,67,1,0,1,00,00,1,0,1,0
136,136,0,0,68,1,0,1,00,00,1,0,1,1
137,137,0,0,68,1,0,1,00,00,1,0,1,0
138,138,0,0,69,1,0,1,00,00,1,1,1,1
139,139,0,0,69,1,0,1,00,00,1,1,1,0
140,140,0,0,70,1,0,1,00,00,1,1,1,1
141,141,0,0,70,1,0,1,00,00,1,1,1,0
142,142,0,0,0,1,0,1,00,00,1,1,1,1
143,143,0,0,0,1,0,1,00,00,1,1,1,0
144,144,0,0,1,1,0,1,00,00,1,1,1,1
145,145,0,0,1,1,0,1,00,00,1,1,1,0
146,146,0,0,2,1,0,1,00,00,1,1,1,1
147,147,0,0,2,1,0,1,00,00,1,1,1,0
148,148,0,0,3,1,0,1,00,00,1,0,1,1
149,149,0,0,3,1,0,1,00,00,1,0,1,0
150,150,0,0,4,1,0,1,00,00,1,0,1,1
151,151,0,0,4,1,0,1,00,00,1,0,1,0
152,152,0,1,5,1,0,1,00,00,1,0,1,1
153,153,0,1,5,1,0,1,00,00,1,0,1,0
154,154,0,1,6,1,0,1,00,00,1,0,1,1
155,155,0,1,6,1,0,1,00,00,1,0,1,0
156,156,0,0,7,1,0,1,00,00,1,0,1,1
157,157,0,0,7,1,0,1,00,00,1,0,1,0
158,158,0,0,8,1,0,1,00,00,1,0,1,1
159,159,0,0,8,1,0,1,00,00,1,0,1,0
160,160,0,1,9,1,0,1,00,00,1,0,1,1
161,161,0,1,9,1,0,1,00,00,1,0,1,0
162,162,0,1,10,1,0,1,00,00,1,0,1,1
163,163,0,1,10,1,0,1,00,00,1,0,1,0
164,164,0,0,11,1,0,1,00,00,1,0,1,1
165,165,0,0,11,1,0,1,00,00,1,0,1,0
166,166,0,0,12,1,0,1,00,00,1,0,1,1
167,167,0,0,12,1,0,1,00,00,1,0,1,0
168,168,0,1,13,1,0,1,00,00,1,0,1,1
169,169,0,1,13,1,0,1,00,00,1,0,1,0
170,170,0,1,14,1,0,1,00,00,1,0,1,1
171,171,0,1,14,1,0,1,00,00,1,0,1,0
172,172,0,0,15,1,1,1,00,00,1,0,1,1
173,173,0,0,15,1,1,1,00,00,1,0,1,0
174,174,0,0,16,1,1,1,00,00,1,0,1,1
175,175,0,0,16,1,1,1,00,00,1,0,1,0
176,176,0,1,17,1,1,1,00,00,1,0,1,1
177,177,0,1,17,1,1,1,00,00,1,0,1,0
178,178,0,1,18,1,1,1,00,00,1,0,1,1
179,179,0,1,18,1,1,1,00,00,1,0,1,0
180,180,0,0,19,1,0,1,00,00,1,0,1,1
181,181,0,0,19,1,0,1,00,00,1,0,1,0
182,182,0,0,20,1,0,1,00,00,1,0,1,1
183,183,0,0,20,1,0,1,00,00,1,0,1,0
184,184,0,1,21,1,0,1,00,00,1,0,1,1
185,185,0,1,21,1,0,1,00,00,1,0,1,0
186,186,0,1,22,1,0,1,00,00,1,0,1,1
187,187,0,1,22,1,0,1,00,00,1,0,1,0
188,188,0,0,23,1,0,1,00,00,1,0,1,1
189,189,0,0,23,1,0,1,00,00,1,0,1,0
190,190,0,0,24,1,0,1,00,00,1,0,1,1
191,191,0,0,24,1,0,1,00,00,1,0,1,0
192,192,0,1,25,1,0,1,00,00,1,0,1,1
193,193,0,1,25,1,0,1,00,00,1,0,1,0
194,194,0,1,26,1,0,1,00,00,1,0,1,1
195,195,0,1,26,1,0,1,00,00,1,0,1,0
196,196,0,0,27,1,1,1,00,00,1,0,1,1
197,197,0,0,27,1,1,1,00,00,1,0,1,0
198,198,0,0,28,1,1,1,00,00,1,0,1,1
199,199,0,0,28,1,1,1,00,00,1,0,1,0
200,200,0,1,29,1,1,1,00,00,1,0,1,1
201,201,0,1,29,1,1,1,00,00,1,0,1,0
202,202,0,1,30,1,1,1,00,00,1,0,1,1
203,203,0,1,30,1,1,1,00,00,1,0,1,0
204,204,0,0,31,1,0,1,00,00,1,0,1,1
205,205,0,0,31,1,0,1,00,00,1,0,1,0
206,206,0,0,32,1,0,1,00,00,1,0,1,1
207,207,0,0,32,1,0,1,00,00,1,0,1,0
208,208,0,1,33,1,0,1,00,00,1,0,1,1
209,209,0,1,33,1,0,1,00,00,1,0,1,0
210,210,0,1,34,1,0,1,00,00,1,0,1,1
211,211,0,1,34,1,0,1,00,00,1,0,1,0
212,212,0,0,35,1,0,1,00,00,1,0,1,1
213,213,0,0,35,1,0,1,00,00,1,0,1,0
214,214,0,0,36,1,0,1,00,00,1,0,1,1
215,215,0,0,36,1,0,1,00,00,1,0,1,0
216,216,0,1,37,1,0,1,00,00,1,0,1,1
217,217,0,1,37,1,0,1,00,00,1,0,1,0
218,218,0,1,38,1,0,1,00,00,1,0,1,1
219,219,0,1,38,1,0,1,00,00,1,0,1,0
220,220,0,0,39,1,0,1,00,00,1,0,1,1
221,221,0,0,39,1,0,1,00,00,1,0,1,0
222,222,0,0,40,1,0,1,00,00,1,0,1,1
223,223,0,0,40,1,0,1,00,00,1,0,1,0
224,224,0,1,41,1,0,1,00,00,1,0,1,1
225,225,0,1,41,1,0,1,00,00,1,0,1,0
226,226,0,1,42,1,0,1,00,00,1,0,1,1
227,227,0,1,42,1,0,1,00,00,1,0,1,0
228,228,0,0,43,1,0,1,00,00,1,0,1,1
229,229,0,0,43,1,0,1,00,00,1,0,1,0
230,230,0,0,44,1,0,1,00,00,1,0,1,1
231,231,0,0,44,1,0,1,00,00,1,0,1,0
232,232,0,1,45,1,0,1,00,00,1,0,1,1
233,233,0,1,45,1,0,1,00,00,1,0,1,0
234,234,0,1,46,1,0,1,00,00,1,0,1,1
235,235,0,1,46,1,0,1,00,00,1,0,1,0
236,236,0,0,47,1,0,1,00,00,1,0,1,1
237,237,0,0,47,1,0,1,00,00,1,0,1,0
238,238,0,0,48,1,0,1,00,00,1,0,1,1
239,239,0,0,48,1,0,1,00,00,1,0,1,0
240,240,0,1,49,1,0,1,00,00,1,0,1,1
241,241,0,1,49,1,0,1,00,00,1,0,1,0
242,242,0,1,50,1,0,1,00,00,1,0,1,1
243,243,0,1,50,1,0,1,00,00,1,0,1,0
244,244,0,0,51,1,0,1,00,00,1,0,1,1
245,245,0,0,51,1,0,1,00,00,1,0,1,0
246,246,0,0,52,1,0,1,00,00,1,0,1,1
247,247,0,0,52,1,0,1,00,00,1,0,1,0
248,248,0,1,53,1,0,1,00,00,1,0,1,1
249,249,0,1,53,1,0,1,00,00,1,0,1,0
250,250,0,1,54,1,0,1,00,00,1,0,1,1
251,251,0,1,54,1,0,1,00,00,1,0,1,0
252,252,0,0,55,1,0,1,00,00,1,0,1,1
253,253,0,0,55,1,0,1,00,00,1,0,1,0
254,254,0,0,56,1,0,1,00,00,1,0,1,1
255,255,0,0,56,1,0,1,00,00,1,0,1,0
256,256,0,1,57,1,0,1,00,00,1,0,1,1
257,257,0,1,57,1,0,1,00,00,1,0,1,0
258,258,0,1,58,1,0,1,00,00,1,0,1,1
259,259,0,1,58,1,0,1,00,00,1,0,1,0
260,260,0,0,59,1,0,1,00,00,1,0,1,1
261,261,0,0,59,1,0,1,00,00,1,0,1,0
262,262,0,0,60,1,0,1,00,00,1,0,1,1
263,263,0,0,60,1,0,1,00,00,1,0,1,0
264,264,0,1,61,1,0,1,00,00,1,0,1,1
265,265,0,1,61,1,0,1,00,00,1,0,1,0
266,266,0,1,62,1,0,1,00,00,1,0,1,1
267,267,0,1,62,1,0,1,00,00,1,0,1,0
268,268,0,0,63,1,0,1,00,00,1,0,1,1
269,269,0,0,63,1,0,1,00,00,1,0,1,0
270,270,0,0,64,1,0,1,00,00,1,0,1,1
271,271,0,0,64,1,0,1,00,00,1,0,1,0
272,272,0,1,65,1,0,1,00,00,1,0,1,1
273,273,0,1,65,1,0,1,00,00,1,0,1,0
274,274,0,1,66,1,0,1,00,00,1,0,1,1
275,275,0,1,66,1,0,1,00,00,1,0,1,0
276,276,0,0,67,1,0,1,00,00,1,0,1,1
277,277,0,0,67,1,0,1,00,00,1,0,1,0
278,278,0,0,68,1,0,1,00,00,1,0,1,1
279,279,0,0,68,1,0,1,00,00,1,0,1,0
280,280,0,0,69,1,0,1,00,00,1,1,1,1
281,281,0,0,69,1,0,1,00,00,1,1,1,0
282,282,0,0,70,1,0,1,00,00,1,1,1,1
283,283,0,0,70,1,0,1,00,00,1,1,1,0
284,284,0,0,0,1,0,1,00,00,1,1,1,1
285,285,0,0,0,1,0,1,00,00,1,1,1,0
286,286,0,0,1,1,0,1,00,00,1,1,1,1
287,287,0,0,1,1,0,1,00,00,1,1,1,0
288,288,0,0,2,1,0,1,00,00,1,1,1,1
289,289,0,0,2,1,0,1,00,00,1,1,1,0
290,290,0,0,3,1,0,1,00,00,1,0,1,1
291,291,0,0,3,1,0,1,00,00,1,0,1,0
292,292,0,0,4,1,0,1,00,00,1,0,1,1
293,293,0,0,4,1,0,1,00,00,1,0,1,0
294,294,0,1,5,1,0,1,00,00,1,0,1,1
295,295,0,1,5,1,0,1,00,00,1,0,1,0
296,296,0,1,6,1,0,1,00,00,1,0,1,1
297,297,0,1,6,1,0,1,00,00,1,0,1,0
298,298,0,0,7,1,0,1,00,00,1,0,1,1
299,299,0,0,7,1,0,1,00,00,1,0,1,0
300,300,0,0,8,1,0,1,00,00,1,0,1,1
301,301,0,0,8,1,0,1,00,00,1,0,1,0
302,302,0,1,9,1,0,1,00,00,1,0,1,1
303,303,0,1,9,1,0,1,00,00,1,0,1,0
304,304,0,1,10,1,0,1,00,00,1,0,1,1
305,305,0,1,10,1,0,1,00,00,1,0,1,0
306,306,0,0,11,1,0,1,00,00,1,0,1,1
307,307,0,0,11,1,0,1,00,00,1,0,1,0
308,308,0,0,12,1,0,1,00,00,1,0,1,1
309,309,0,0,12,1,0,1,00,00,1,0,1,0
310,310,0,1,13,1,0,1,00,00,1,0,1,1
311,311,0,1,13,1,0,1,00,00,1,0,1,0
312,312,0,1,14,1,0,1,00,00,1,0,1,1
313,313,0,1,14,1,0,1,00,00,1,0,1,0
314,314,0,0,15,1,1,1,00,00,1,0,1,1
315,315,0,0,15,1,1,1,00,00,1,0,1,0
316,316,0,0,16,1,1,1,00,00,1,0,1,1
317,317,0,0,16,1,1,1,00,00,1,0,1,0
318,318,0,1,17,1,1,1,00,00,1,0,1,1
319,319,0,1,17,1,1,1,00,00,1,0,1,0
320,320,0,1,18,1,1,1,00,00,1,0,1,1
321,321,0,1,18,1,1,1,00,00,1,0,1,0
322,322,0,0,19,1,0,1,00,00,1,0,1,1
323,323,0,0,19,1,0,1,00,00,1,0,1,0
324,324,0,0,20,1,0,1,00,00,1,0,1,1
325,325,0,0,20,1,0,1,00,00,1,0,1,0
326,326,0,1,21,1,0,1,00,00,1,0,1,1
327,327,0,1,21,1,0,1,00,00,1,0,1,0
328,328,0,1,22,1,0,1,00,00,1,0,1,1
329,329,0,1,22,1,0,1,00,00,1,0,1,0
330,330,0,0,23,1,0,1,00,00,1,0,1,1
331,331,0,0,23,1,0,1,00,00,1,0,1,0
332,332,0,0,24,1,0,1,00,00,1,0,1,1
333,333,0,0,24,1,0,1,00,00,1,0,1,0
334,334,0,1,25,1,0,1,00,00,1,0,1,1
335,335,0,1,25,1,0,1,00,00,1,0,1,0
336,336,0,1,26,1,0,1,00,00,1,0,1,1
337,337,0,1,26,1,0,1,00,00,1,0,1,0
338,338,0,0,27,1,1,1,00,00,1,0,1,1
339,339,0,0,27,1,1,1,00,00,1,0,1,0
340,340,0,0,28,1,1,1,00,00,1,0,1,1
341,341,0,0,28,1,1,1,00,00,1,0,1,0
342,342,0,1,29,1,1,1,00,00,1,0,1,1
343,343,0,1,29,1,1,1,00,00,1,0,1,0
344,344,0,1,30,1,1,1,00,00,1,0,1,1
345,345,0,1,30,1,1,1,00,00,1,0,1,0
346,346,0,0,31,1,0,1,00,00,1,0,1,1
347,347,0,0,31,1,0,1,00,00,1,0,1,0
348,348,0,0,32,1,0,1,00,00,1,0,1,1
349,349,0,0,32,1,0,1,00,00,1,0,1,0
350,350,0,1,33,1,0,1,00,00,1,0,1,1
351,351,0,1,33,1,0,1,00,00,1,0,1,0
352,352,0,1,34,1,0,1,00,00,1,0,1,1
353,353,0,1,34,1,0,1,00,00,1,0,1,0
354,354,0,0,35,1,0,1,00,00,1,0,1,1
355,355,0,0,35,1,0,1,00,00,1,0,1,0
356,356,0,0,36,1,0,1,00,00,1,0,1,1
357,357,0,0,36,1,0,1,00,00,1,0,1,0
358,358,0,1,37,1,0,1,00,00,1,0,1,1
359,359,0,1,37,1,0,1,00,00,1,0,1,0
360,360,0,1,38,1,0,1,00,00,1,0,1,1
361,361,0,1,38,1,0,1,00,00,1,0,1,0
362,362,0,0,39,1,0,1,00,00,1,0,1,1
363,363,0,0,39,1,0,1,00,00,1,0,1,0
364,364,0,0,40,1,0,1,00,00,1,0,1,1
365,365,0,0,40,1,0,1,00,00,1,0,1,0
366,366,0,1,41,1,0,1,00,00,1,0,1,1
367,367,0,1,41,1,0,1,00,00,1,0,1,0
368,368,0,1,42,1,0,1,00,00,1,0,1,1
369,369,0,1,42,1,0,1,00,00,1,0,1,0
370,370,0,0,43,1,0,1,00,00,1,0,1,1
371,371,0,0,43,1,0,1,00,00,1,0,1,0
372,372,0,0,44,1,0,1,00,00,1,0,1,1
373,373,0,0,44,1,0,1,00,00,1,0,1,0
374,374,0,1,45,1,0,1,00,00,1,0,1,1
375,375,0,1,45,1,0,1,00,00,1,0,1,0
376,376,0,1,46,1,0,1,00,00,1,0,1,1
377,377,0,1,46,1,0,1,00,00,1,0,1,0
378,378,0,0,47,1,0,1,00,00,1,0,1,1
379,379,0,0,47,1,0,1,00,00,1,0,1,0
380,380,0,0,48,1,0,1,00,00,1,0,1,1
381,381,0,0,48,1,0,1,00,00,1,0,1,0
382,382,0,1,49,1,0,1,00,00,1,0,1,1
383,383,0,1,49,1,0,1,00,00,1,0,1,0
384,384,0,1,50,1,0,1,00,00,1,0,1,1
385,385,0,1,50,1,0,1,00,00,1,0,1,0
386,386,0,0,51,1,0,1,00,00,1,0,1,1
387,387,0,0,51,1,0,1,00,00,1,0,1,0
388,388,0,0,52,1,0,1,00,00,1,0,1,1
389,389,0,0,52,1,0,1,00,00,1,0,1,0
390,390,0,1,53,1,0,1,00,00,1,0,1,1
391,391,0,1,53,1,0,1,00,00,1,0,1,0
392,392,0,1,54,1,0,1,00,00,1,0,1,1
393,393,0,1,54,1,0,1,00,00,1,0,1,0
394,394,0,0,55,1,0,1,00,00,1,0,1,1
395,395,0,0,55,1,0,1,00,00,1,0,1,0
396,396,0,0,56,1,0,1,00,00,1,0,1,1
397,397,0,0,56,1,0,1,00,00,1,0,1,0
398,398,0,1,57,1,0,1,00,00,1,0,1,1
399,399,0,1,57,1,0,1,00,00,1,0,1,0
400,400,0,1,58,1,0,1,00,00,1,0,1,1
401,401,0,1,58,1,0,1,00,00,1,0,1,0
402,402,0,0,59,1,0,1,00,00,1,0,1,1
403,403,0,0,59,1,0,1,00,00,1,0,1,0
404,404,0,0,60,1,0,1,00,00,1,0,1,1
405,405,0,0,60,1,0,1,00,00,1,0,1,0
406,406,0,1,61,1,0,1,00,00,1,0,1,1
407,407,0,1,61,1,0,1,00,00,1,0,1,0
408,408,0,1,62,1,0,1,00,00,1,0,1,1
409,409,0,1,62,1,0,1,00,00,1,0,1,0
410,410,0,0,63,1,0,1,00,00,1,0,1,1
411,411,0,0,63,1,0,1,00,00,1,0,1,0
412,412,0,0,64,1,0,1,00,00,1,0,1,1
413,413,0,0,64,1,0,1,00,00,1,0,1,0
414,414,0,1,65,1,0,1,00,00,1,0,1,1
415,415,0,1,65,1,0,1,00,00,1,0,1,0
416,416,0,1,66,1,0,1,00,00,1,0,1,1
417,417,0,1,66,1,0,1,00,00,1,0,1,0
418,418,0,0,67,1,0,1,00,00,1,0,1,1
419,419,0,0,67,1,0,1,00,00,1,0,1,0
420,420,0,0,68,1,0,1,00,00,1,0,1,1
421,421,0,0,68,1,0,1,00,00,1,0,1,0
422,422,0,0,69,1,0,1,00,00,1,1,1,1
423,423,0,0,69,1,0,1,00,00,1,1,1,0
424,424,0,0,70,1,0,1,00,00,1,1,1,1
425,425,0,0,70,1,0,1,00,00,1,1,1,0
426,426,0,0,0,1,0,1,00,00,1,1,1,1
427,427,0,0,0,1,0,1,00,00,1,1,1,0
428,428,0,0,1,1,0,1,00,00,1,1,1,1
429,429,0,0,1,1,0,1,00,00,1,1,1,0
430,430,0,0,2,1,0,1,00,00,1,1,1,1
431,431,0,0,2,1,0,1,00,00,1,1,1,0
432,432,0,0,3,1,0,1,00,00,1,0,1,1
433,433,0,0,3,1,0,1,00,00,1,0,1,0
434,434,0,0,4,1,0,1,00,00,1,0,1,1
435,435,0,0,4,1,0,1,00,00,1,0,1,0
436,436,0,1,5,1,0,1,00,00,1,0,1,1
437,437,0,1,5,1,0,1,00,00,1,0,1,0
438,438,0,1,6,1,0,1,00,00,1,0,1,1
439,439,0,1,6,1,0,1,00,00,1,0,1,0
440,440,0,0,7,1,0,1,00,00,1,0,1,1
441,441,0,0,7,1,0,1,00,00,1,0,1,0
442,442,0,0,8,1,0,1,00,00,1,0,1,1
443,443,0,0,8,1,0,1,00,00,1,0,1,0
444,444,0,1,9,1,0,1,00,00,1,0,1,1
445,445,0,1,9,1,0,1,00,00,1,0,1,0
446,446,0,1,10,1,0,1,00,00,1,0,1,1
447,447,0,1,10,1,0,1,00,00,1,0,1,0
448,448,0,0,11,1,0,1,00,00,1,0,1,1
449,449,0,0,11,1,0,1,00,00,1,0,1,0
450,450,0,0,12,1,0,1,00,00,1,0,1,1
451,451,0,0,12,1,0,1,00,00,1,0,1,0
452,452,0,1,13,1,0,1,00,00,1,0,1,1
453,453,0,1,13,1,0,1,00,00,1,0,1,0
454,454,0,1,14,1,0,1,00,00,1,0,1,1
455,455,0,1,14,1,0,1,00,00,1,0,1,0
456,456,0,0,15,1,1,1,00,00,1,0,1,1
457,457,0,0,15,1,1,1,00,00,1,0,1,0
458,458,0,0,16,1,1,1,00,00,1,0,1,1
459,459,0,0,16,1,1,1,00,00,1,0,1,0
460,460,0,1,17,1,1,1,00,00,1,0,1,1
461,461,0,1,17,1,1,1,00,00,1,0,1,0
462,462,0,1,18,1,1,1,00,00,1,0,1,1
463,463,0,1,18,1,1,1,00,00,1,0,1,0
464,464,0,0,19,1,0,1,00,00,1,0,1,1
465,465,0,0,19,1,0,1,00,00,1,0,1,0
466,466,0,0,20,1,0,1,00,00,1,0,1,1
467,467,0,0,20,1,0,1,00,00,1,0,1,0
468,468,0,1,21,1,0,1,00,00,1,0,1,1
469,469,0,1,21,1,0,1,00,00,1,0,1,0
470,470,0,1,22,1,0,1,00,00,1,0,1,1
471,471,0,1,22,1,0,1,00,00,1,0,1,0
472,472,0,0,23,1,0,1,00,00,1,0,1,1
473,473,0,0,23,1,0,1,00,00,1,0,1,0
474,474,0,0,24,1,0,1,00,00,1,0,1,1
475,475,0,0,24,1,0,1,00,00,1,0,1,0
476,476,0,1,25,1,0,1,00,00,1,0,1,1
477,477,0,1,25,1,0,1,00,00,1,0,1,0
478,478,0,1,26,1,0,1,00,00,1,0,1,1
479,479,0,1,26,1,0,1,00,00,1,0,1,0
480,480,0,0,27,1,1,1,00,00,1,0,1,1
481,481,0,0,27,1,1,1,00,00,1,0,1,0
482,482,0,0,28,1,1,1,00,00,1,0,1,1
483,483,0,0,28,1,1,1,00,00,1,0,1,0
484,484,0,1,29,1,1,1,00,00,1,0,1,1
485,485,0,1,29,1,1,1,00,00,1,0,1,0
486,486,0,1,30,1,1,1,00,00,1,0,1,1
487,487,0,1,30,1,1,1,00,00,1,0,1,0
488,488,0,0,31,1,0,1,00,00,1,0,1,1
489,489,0,0,31,1,0,1,00,00,1,0,1,0
490,490,0,0,32,1,0,1,00,00,1,0,1,1
491,491,0,0,32,1,0,1,00,00,1,0,1,0
492,492,0,1,33,1,0,1,00,00,1,0,1,1
493,493,0,1,33,1,0,1,00,00,1,0,1,0
494,494,0,1,34,1,0,1,00,00,1,0,1,1
495,495,0,1,34,1,0,1,00,00,1,0,1,0
496,496,0,0,35,1,0,1,00,00,1,0,1,1
497,497,0,0,35,1,0,1,00,00,1,0,1,0
498,498,0,0,36,1,0,1,00,00,1,0,1,1
499,499,0,0,36,1,0,1,00,00,1,0,1,0
500,500,0,1,37,1,0,1,00,00,1,0,1,1
501,501,0,1,37,1,0,1,00,00,1,0,1,0
502,502,0,1,38,1,0,1,00,00,1,0,1,1
503,503,0,1,38,1,0,1,00,00,1,0,1,0
504,504,0,0,39,1,0,1,00,00,1,0,1,1
505,505,0,0,39,1,0,1,00,00,1,0,1,0
506,506,0,0,40,1,0,1,00,00,1,0,1,1
507,507,0,0,40,1,0,1,00,00,1,0,1,0
508,508,0,1,41,1,0,1,00,00,1,0,1,1
509,509,0,1,41,1,0,1,00,00,1,0,1,0
510,510,0,1,42,1,0,1,00,00,1,0,1,1
511,511,0,1,42,1,0,1,00,00,1,0,1,0
512,512,0,0,43,1,0,1,00,00,1,0,1,1
513,513,0,0,43,1,0,1,00,00,1,0,1,0
514,514,0,0,44,1,0,1,00,00,1,0,1,1
515,515,0,0,44,1,0,1,00,00,1,0,1,0
516,516,0,1,45,1,0,1,00,00,1,0,1,1
517,517,0,1,45,1,0,1,00,00,1,0,1,0
518,518,0,1,46,1,0,1,00,00,1,0,1,1
519,519,0,1,46,1,0,1,00,00,1,0,1,0
520,520,0,0,47,1,0,1,00,00,1,0,1,1
521,521,0,0,47,1,0,1,00,00,1,0,1,0
522,522,0,0,48,1,0,1,00,00,1,0,1,1
523,523,0,0,48,1,0,1,00,00,1,0,1,0
524,524,0,1,49,1,0,1,00,00,1,0,1,1
525,525,0,1,49,1,0,1,00,00,1,0,1,0
526,526,0,1,50,1,0,1,00,00,1,0,1,1
527,527,0,1,50,1,0,1,00,00,1,0,1,0
528,528,0,0,51,1,0,1,00,00,1,0,1,1
529,529,0,0,51,1,0,1,00,00,1,0,1,0
530,530,0,0,52,1,0,1,00,00,1,0,1,1
531,531,0,0,52,1,0,1,00,00,1,0,1,0
532,532,0,1,53,1,0,1,00,00,1,0,1,1
533,533,0,1,53,1,0,1,00,00,1,0,1,0
534,534,0,1,54,1,0,1,00,00,1,0,1,1
535,535,0,1,54,1,0,1,00,00,1,0,1,0
536,536,0,0,55,1,0,1,00,00,1,0,1,1
537,537,0,0,55,1,0,1,00,00,1,0,1,0
538,538,0,0,56,1,0,1,00,00,1,0,1,1
539,539,0,0,56,1,0,1,00,00,1,0,1,0
540,540,0,1,57,1,0,1,00,00,1,0,1,1
541,541,0,1,57,1,0,1,00,00,1,0,1,0
542,542,0,1,58,1,0,1,00,00,1,0,1,1
543,543,0,1,58,1,0,1,00,00,1,0,1,0
544,544,0,0,59,1,0,1,00,00,1,0,1,1
545,545,0,0,59,1,0,1,00,00,1,0,1,0
546,546,0,0,60,1,0,1,00,00,1,0,1,1
547,547,0,0,60,1,0,1,00,00,1,0,1,0
548,548,0,1,61,1,0,1,00,00,1,0,1,1
549,549,0,1,61,1,0,1,00,00,1,0,1,0
550,550,0,1,62,1,0,1,00,00,1,0,1,1
551,551,0,1,62,1,0,1,00,00,1,0,1,0
552,552,0,0,63,1,0,1,00,00,1,0,1,1
553,553,0,0,63,1,0,1,00,00,1,0,1,0
554,554,0,0,64,1,0,1,00,00,1,0,1,1
555,555,0,0,64,1,0,1,00,00,1,0,1,0
556,556,0,1,65,1,0,1,00,00,1,0,1,1
557,557,0,1,65,1,0,1,00,00,1,0,1,0
558,558,0,1,66,1,0,1,00,00,1,0,1,1
559,559,0,1,66,1,0,1,00,00,1,0,1,0
560,560,0,0,67,1,0,1,00,00,1,0,1,1
561,561,0,0,67,1,0,1,00,00,1,0,1,0
562,562,0,0,68,1,0,1,00,00,1,0,1,1
563,563,0,0,68,1,0,1,00,00,1,0,1,0
564,564,0,0,69,1,0,1,00,00,1,1,1,1
565,565,0,0,69,1,0,1,00,00,1,1,1,0
566,566,0,0,70,1,0,1,00,00,1,1,1,1
567,567,0,0,70,1,0,1,00,00,1,1,1,0
568,568,0,0,0,1,0,1,00,00,1,1,1,1
569,569,0,0,0,1,0,1,00,00,1,1,1,0
570,570,0,0,1,1,0,1,00,00,1,1,1,1
571,571,0,0,1,1,0,1,00,00,1,1,1,0
572,572,0,0,2,1,0,1,00,00,1,1,1,1
573,573,0,0,2,1,0,1,00,00,1,1,1,0
